T43F0 000:007.182   SEGGER J-Link V6.64 Log File
T43F0 000:007.305   DLL Compiled: Mar 13 2020 15:55:42
T43F0 000:007.311   Logging started @ 2023-12-02 06:01
T43F0 000:007.319 JLINK_SetWarnOutHandler(...)
T43F0 000:007.326 - 0.009ms
T43F0 000:007.334 JLINK_OpenEx(...)
T43F0 000:009.147   Firmware: J-Link V9 compiled Jun  2 2222 22:22:22
T43F0 000:009.309   Decompressing FW timestamp took 130 us
T43F0 000:016.108   Hardware: V9.40
T43F0 000:016.123   S/N: 81480416
T43F0 000:016.131   OEM: SEGGER
T43F0 000:016.138   Feature(s): GDB, RDI, FlashBP, FlashDL, JFlash, RDDI
T43F0 000:017.241   TELNET listener socket opened on port 19021
T43F0 000:017.330   WEBSRV Starting webserver
T43F0 000:017.512   WEBSRV Webserver running on local port 19080
T43F0 000:017.523 - 10.191ms returns "O.K."
T43F0 000:017.539 JLINK_GetEmuCaps()
T43F0 000:017.545 - 0.032ms returns 0xB9FF7BBF
T43F0 000:017.579 JLINK_TIF_GetAvailable(...)
T43F0 000:017.798 - 0.227ms
T43F0 000:017.817 JLINK_SetErrorOutHandler(...)
T43F0 000:017.822 - 0.008ms
T43F0 000:017.836 JLINK_ExecCommand("ProjectFile = "D:\code\FPGA_anlogic\M3_Prj_Voice\Projects\Keil\JLinkSettings.ini"", ...). 
T43F0 000:025.920   Ref file found at: D:\tools\keil_v5.38\ARM\Segger\JLinkDevices.ref
T43F0 000:026.151   XML referenced by ref file: C:\Program Files (x86)\SEGGER\JLink\JLinkDevices.xml
T43F0 000:027.132   C:\Program Files (x86)\SEGGER\JLink\JLinkDevices.xml evaluated successfully.
T43F0 000:084.644   Device "CORTEX-M3" selected.
T43F0 000:085.022 - 67.195ms returns 0x00
T43F0 000:089.125 JLINK_ExecCommand("Device = ARMCM3", ...). 
T43F0 000:094.361   Device "CORTEX-M3" selected.
T43F0 000:094.735 - 5.600ms returns 0x00
T43F0 000:094.750 JLINK_ExecCommand("DisableConnectionTimeout", ...). 
T43F0 000:094.760 - 0.005ms returns 0x01
T43F0 000:094.768 JLINK_GetHardwareVersion()
T43F0 000:094.778 - 0.012ms returns 0x16F30
T43F0 000:094.785 JLINK_GetDLLVersion()  returns 66400
T43F0 000:094.799 JLINK_GetFirmwareString(...)
T43F0 000:094.804 - 0.008ms
T43F0 000:107.506 JLINK_GetDLLVersion()  returns 66400
T43F0 000:107.525 JLINK_GetCompileDateTime()
T43F0 000:107.531 - 0.008ms
T43F0 000:112.844 JLINK_GetFirmwareString(...)
T43F0 000:112.859 - 0.018ms
T43F0 000:117.203 JLINK_GetHardwareVersion()
T43F0 000:117.215 - 0.014ms returns 0x16F30
T43F0 000:136.471 JLINK_TIF_Select(JLINKARM_TIF_SWD)
T43F0 000:137.163 - 0.701ms returns 0x00
T43F0 000:137.188 JLINK_SetSpeed(10000)
T43F0 000:137.307 - 0.125ms
T43F0 000:137.321 JLINK_GetId()
T43F0 000:143.761   Found SW-DP with ID 0x2BA01477
T43F0 000:145.678   Old FW that does not support reading DPIDR via DAP jobs
T43F0 000:150.499   Unknown DP version. Assuming DPv0
T43F0 000:157.203   Scanning AP map to find all available APs
T43F0 000:161.809   AP[1]: Stopped AP scan as end of AP map has been reached
T43F0 000:165.720   AP[0]: AHB-AP (IDR: 0x24770011)
T43F0 000:170.196   Iterating through AP map to find AHB-AP to use
T43F0 000:175.200   AP[0]: Core found
T43F0 000:179.183   AP[0]: AHB-AP ROM base: 0xE00FF000
T43F0 000:183.647   CPUID register: 0x412FC231. Implementer code: 0x41 (ARM)
T43F0 000:188.112   Found Cortex-M3 r2p1, Little endian.
T43F0 000:289.287    -- Max. mem block: 0x00010C80
T43F0 000:289.324    -- CPU_ReadMem(4 bytes @ 0xE000EDF0)
T43F0 000:289.878    -- CPU_WriteMem(4 bytes @ 0xE000EDF0)
T43F0 000:290.184    -- CPU_ReadMem(4 bytes @ 0xE0002000)
T43F0 000:297.134   FPUnit: 6 code (BP) slots and 2 literal slots
T43F0 000:297.155    -- CPU_ReadMem(4 bytes @ 0xE000EDFC)
T43F0 000:297.510    -- CPU_WriteMem(4 bytes @ 0xE000EDFC)
T43F0 000:297.876    -- CPU_ReadMem(4 bytes @ 0xE0001000)
T43F0 000:298.254    -- CPU_WriteMem(4 bytes @ 0xE0001000)
T43F0 000:298.600    -- CPU_ReadMem(4 bytes @ 0xE000ED88)
T43F0 000:298.956    -- CPU_WriteMem(4 bytes @ 0xE000ED88)
T43F0 000:299.328    -- CPU_ReadMem(4 bytes @ 0xE000ED88)
T43F0 000:299.630    -- CPU_WriteMem(4 bytes @ 0xE000ED88)
T43F0 000:304.344   CoreSight components:
T43F0 000:308.428   ROMTbl[0] @ E00FF000
T43F0 000:308.446    -- CPU_ReadMem(64 bytes @ 0xE00FF000)
T43F0 000:309.662    -- CPU_ReadMem(32 bytes @ 0xE000EFE0)
T43F0 000:314.899   ROMTbl[0][0]: E000E000, CID: B105E00D, PID: 000BB000 SCS
T43F0 000:314.925    -- CPU_ReadMem(32 bytes @ 0xE0001FE0)
T43F0 000:322.515   ROMTbl[0][1]: E0001000, CID: B105E00D, PID: 003BB002 DWT
T43F0 000:322.545    -- CPU_ReadMem(32 bytes @ 0xE0002FE0)
T43F0 000:329.713   ROMTbl[0][2]: E0002000, CID: B105E00D, PID: 002BB003 FPB
T43F0 000:329.737    -- CPU_ReadMem(32 bytes @ 0xE0000FE0)
T43F0 000:334.650   ROMTbl[0][3]: E0000000, CID: B105E00D, PID: 003BB001 ITM
T43F0 000:334.668    -- CPU_ReadMem(32 bytes @ 0xE0040FE0)
T43F0 000:339.325   ROMTbl[0][4]: E0040000, CID: B105900D, PID: 003BB923 TPIU-Lite
T43F0 000:339.352    -- CPU_ReadMem(32 bytes @ 0xE0041FE0)
T43F0 000:348.862   ROMTbl[0][5]: E0041000, CID: B105900D, PID: 003BB924 ETM-M3
T43F0 000:349.188 - 211.878ms   returns 0x2BA01477
T43F0 000:349.214 JLINK_GetDLLVersion()  returns 66400
T43F0 000:349.222 JLINK_CORE_GetFound()
T43F0 000:349.227 - 0.008ms returns 0x30000FF
T43F0 000:349.238 JLINK_GetDebugInfo(0x100 = JLINKARM_ROM_TABLE_ADDR_INDEX)
T43F0 000:349.245   Value=0xE00FF000
T43F0 000:349.253 - 0.017ms returns 0x00
T43F0 000:353.842 JLINK_GetDebugInfo(0x100 = JLINKARM_ROM_TABLE_ADDR_INDEX)
T43F0 000:353.868   Value=0xE00FF000
T43F0 000:353.876 - 0.036ms returns 0x00
T43F0 000:353.884 JLINK_GetDebugInfo(0x101 = JLINKARM_DEBUG_INFO_ETM_ADDR_INDEX)
T43F0 000:353.889   Value=0xE0041000
T43F0 000:353.897 - 0.015ms returns 0x00
T43F0 000:353.910   JLINK_ReadMemEx(0xE0041FD0, 0x0020 Bytes, ..., Flags = 0x02000004)
T43F0 000:353.935    -- CPU_ReadMem(32 bytes @ 0xE0041FD0)
T43F0 000:354.480   Data:  04 00 00 00 00 00 00 00 00 00 00 00 00 00 00 00 ...
T43F0 000:354.495 - 0.589ms returns 0x20
T43F0 000:354.505 JLINK_GetDebugInfo(0x102 = JLINKARM_DEBUG_INFO_MTB_ADDR_INDEX)
T43F0 000:354.511   Value=0x00000000
T43F0 000:354.518 - 0.015ms returns 0x00
T43F0 000:354.525 JLINK_GetDebugInfo(0x103 = JLINKARM_DEBUG_INFO_TPIU_ADDR_INDEX)
T43F0 000:354.530   Value=0xE0040000
T43F0 000:354.538 - 0.015ms returns 0x00
T43F0 000:354.544 JLINK_GetDebugInfo(0x104 = JLINKARM_DEBUG_INFO_ITM_ADDR_INDEX)
T43F0 000:354.549   Value=0xE0000000
T43F0 000:354.556 - 0.014ms returns 0x00
T43F0 000:354.563 JLINK_GetDebugInfo(0x105 = JLINKARM_DEBUG_INFO_DWT_ADDR_INDEX)
T43F0 000:354.568   Value=0xE0001000
T43F0 000:354.575 - 0.014ms returns 0x00
T43F0 000:354.582 JLINK_GetDebugInfo(0x106 = JLINKARM_DEBUG_INFO_FPB_ADDR_INDEX)
T43F0 000:354.587   Value=0xE0002000
T43F0 000:354.594 - 0.014ms returns 0x00
T43F0 000:354.601 JLINK_GetDebugInfo(0x107 = JLINKARM_DEBUG_INFO_NVIC_ADDR_INDEX)
T43F0 000:354.606   Value=0xE000E000
T43F0 000:354.613 - 0.014ms returns 0x00
T43F0 000:354.619 JLINK_GetDebugInfo(0x10C = JLINKARM_DEBUG_INFO_DBG_ADDR_INDEX)
T43F0 000:354.625   Value=0xE000EDF0
T43F0 000:354.632 - 0.014ms returns 0x00
T43F0 000:354.638 JLINK_GetDebugInfo(0x01 = Unknown)
T43F0 000:354.646   Value=0x00000000
T43F0 000:354.653 - 0.017ms returns 0x00
T43F0 000:354.660 JLINK_ReadMemU32(0xE000ED00, 0x0001 Items, ...)
T43F0 000:354.670    -- CPU_ReadMem(4 bytes @ 0xE000ED00)
T43F0 000:355.010   Data:  31 C2 2F 41
T43F0 000:355.026    - CPUID
T43F0 000:355.034 - 0.377ms returns 1
T43F0 000:355.044 JLINK_GetDebugInfo(0x10F = JLINKARM_DEBUG_INFO_HAS_CORTEX_M_SECURITY_EXT_INDEX)
T43F0 000:355.050   Value=0x00000000
T43F0 000:355.057 - 0.015ms returns 0x00
T43F0 000:355.066 JLINK_SetResetType(JLINKARM_CM3_RESET_TYPE_CORE)
T43F0 000:355.072 - 0.007ms returns JLINKARM_CM3_RESET_TYPE_NORMAL
T43F0 000:355.079 JLINK_Reset()
T43F0 000:355.097   CPU is running
T43F0 000:355.106    -- CPU_WriteMem(4 bytes @ 0xE000EDF0)
T43F0 000:355.441   CPU is running
T43F0 000:355.456    -- CPU_WriteMem(4 bytes @ 0xE000EDFC)
T43F0 000:363.222   Reset: Halt core after reset via DEMCR.VC_CORERESET.
T43F0 000:367.673   Reset: Reset device via AIRCR.VECTRESET.
T43F0 000:367.692   CPU is running
T43F0 000:367.703    -- CPU_WriteMem(4 bytes @ 0xE000ED0C)
T43F0 000:368.093    -- CPU_ReadMem(4 bytes @ 0xE000EDF0)
T43F0 000:368.461    -- CPU_ReadMem(4 bytes @ 0xE000EDF0)
T43F0 000:368.824   CPU is running
T43F0 000:368.840    -- CPU_WriteMem(4 bytes @ 0xE000EDF0)
T43F0 000:369.189   CPU is running
T43F0 000:369.204    -- CPU_WriteMem(4 bytes @ 0xE000EDFC)
T43F0 000:374.823    -- CPU_ReadMem(4 bytes @ 0xE000EDF0)
T43F0 000:377.889    -- CPU_WriteMem(4 bytes @ 0xE0002000)
T43F0 000:378.322    -- CPU_ReadMem(4 bytes @ 0xE000EDFC)
T43F0 000:378.681    -- CPU_ReadMem(4 bytes @ 0xE0001000)
T43F0 000:378.995 - 23.926ms
T43F0 000:379.021 JLINK_Halt()
T43F0 000:379.028 - 0.009ms returns 0x00
T43F0 000:379.035 JLINK_ReadMemU32(0xE000EDF0, 0x0001 Items, ...)
T43F0 000:379.048    -- CPU_ReadMem(4 bytes @ 0xE000EDF0)
T43F0 000:379.463   Data:  03 00 03 00
T43F0 000:379.478    - DHCSR
T43F0 000:379.485 - 0.452ms returns 1
T43F0 000:379.499 JLINK_WriteU32(0xE000EDF0, 0xA05F0003)
T43F0 000:379.505    - DHCSR
T43F0 000:379.525    -- CPU_WriteMem(4 bytes @ 0xE000EDF0)
T43F0 000:380.186 - 0.694ms returns 0
T43F0 000:380.205 JLINK_WriteU32(0xE000EDFC, 0x01000000)
T43F0 000:380.211    - DEMCR
T43F0 000:380.224    -- CPU_WriteMem(4 bytes @ 0xE000EDFC)
T43F0 000:380.591 - 0.394ms returns 0
T43F0 000:397.654 JLINK_GetHWStatus(...)
T43F0 000:397.921 - 0.276ms returns 0x00
T43F0 000:410.453 JLINK_GetNumBPUnits(Type = 0xFFFFFF00)
T43F0 000:410.474 - 0.024ms returns 0x06
T43F0 000:410.482 JLINK_GetNumBPUnits(Type = 0xF0)
T43F0 000:410.487 - 0.008ms returns 0x2000
T43F0 000:410.494 JLINK_GetNumWPUnits()
T43F0 000:410.499 - 0.007ms returns 0x04
T43F0 000:424.583 JLINK_GetSpeed()
T43F0 000:424.604 - 0.023ms returns 0x1770
T43F0 000:432.886 JLINK_ReadMemU32(0xE000E004, 0x0001 Items, ...)
T43F0 000:432.912    -- CPU_ReadMem(4 bytes @ 0xE000E004)
T43F0 000:433.275   Data:  01 00 00 00
T43F0 000:433.289 - 0.405ms returns 1
T43F0 000:433.299 JLINK_ReadMemU32(0xE000E004, 0x0001 Items, ...)
T43F0 000:433.309    -- CPU_ReadMem(4 bytes @ 0xE000E004)
T43F0 000:433.658   Data:  01 00 00 00
T43F0 000:433.672 - 0.375ms returns 1
T43F0 000:433.682 JLINK_WriteMemEx(0xE0001000, 0x001C Bytes, ..., Flags = 0x02000004)
T43F0 000:433.688   Data:  01 00 00 00 00 00 00 00 00 00 00 00 00 00 00 00 ...
T43F0 000:433.937    -- CPU_WriteMem(28 bytes @ 0xE0001000)
T43F0 000:434.419 - 0.745ms returns 0x1C
T43F0 000:434.438 JLINK_Halt()
T43F0 000:434.445 - 0.009ms returns 0x00
T43F0 000:434.452 JLINK_IsHalted()
T43F0 000:434.458 - 0.009ms returns TRUE
T43F0 000:439.845 JLINK_WriteMem(0x00008000, 0x017C Bytes, ...)
T43F0 000:439.857   Data:  00 BE 0A E0 0D 78 2D 06 68 40 08 24 40 00 00 D3 ...
T43F0 000:440.093    -- CPU_WriteMem(380 bytes @ 0x00008000)
T43F0 000:441.970 - 2.133ms returns 0x17C
T43F0 000:442.009 JLINK_WriteReg(R0, 0x00000000)
T43F0 000:442.018 - 0.012ms returns 0x00
T43F0 000:442.026 JLINK_WriteReg(R1, 0x00B71B00)
T43F0 000:442.031 - 0.008ms returns 0x00
T43F0 000:442.039 JLINK_WriteReg(R2, 0x00000001)
T43F0 000:442.044 - 0.008ms returns 0x00
T43F0 000:442.051 JLINK_WriteReg(R3, 0x00000000)
T43F0 000:442.057 - 0.008ms returns 0x00
T43F0 000:442.064 JLINK_WriteReg(R4, 0x00000000)
T43F0 000:442.069 - 0.008ms returns 0x00
T43F0 000:442.076 JLINK_WriteReg(R5, 0x00000000)
T43F0 000:442.082 - 0.008ms returns 0x00
T43F0 000:442.088 JLINK_WriteReg(R6, 0x00000000)
T43F0 000:442.094 - 0.008ms returns 0x00
T43F0 000:442.101 JLINK_WriteReg(R7, 0x00000000)
T43F0 000:442.106 - 0.008ms returns 0x00
T43F0 000:442.113 JLINK_WriteReg(R8, 0x00000000)
T43F0 000:442.119 - 0.008ms returns 0x00
T43F0 000:442.126 JLINK_WriteReg(R9, 0x00008178)
T43F0 000:442.131 - 0.008ms returns 0x00
T43F0 000:442.138 JLINK_WriteReg(R10, 0x00000000)
T43F0 000:442.144 - 0.008ms returns 0x00
T43F0 000:442.151 JLINK_WriteReg(R11, 0x00000000)
T43F0 000:442.156 - 0.008ms returns 0x00
T43F0 000:442.163 JLINK_WriteReg(R12, 0x00000000)
T43F0 000:442.169 - 0.008ms returns 0x00
T43F0 000:442.176 JLINK_WriteReg(R13 (SP), 0x00010000)
T43F0 000:442.182 - 0.008ms returns 0x00
T43F0 000:442.189 JLINK_WriteReg(R14, 0x00008001)
T43F0 000:442.198 - 0.011ms returns 0x00
T43F0 000:442.205 JLINK_WriteReg(R15 (PC), 0x00008070)
T43F0 000:442.211 - 0.008ms returns 0x00
T43F0 000:442.217 JLINK_WriteReg(XPSR, 0x01000000)
T43F0 000:442.223 - 0.008ms returns 0x00
T43F0 000:442.230 JLINK_WriteReg(MSP, 0x00010000)
T43F0 000:442.235 - 0.008ms returns 0x00
T43F0 000:442.242 JLINK_WriteReg(PSP, 0x00010000)
T43F0 000:442.248 - 0.008ms returns 0x00
T43F0 000:442.255 JLINK_WriteReg(CFBP, 0x00000000)
T43F0 000:442.260 - 0.008ms returns 0x00
T43F0 000:442.268   JLINK_SetBPEx(Addr = 0x00008000, Type = 0xFFFFFFF2)
T43F0 000:442.277 - 0.012ms returns 0x00000001
T43F0 000:442.284 JLINK_Go()
T43F0 000:442.292    -- CPU_WriteMem(4 bytes @ 0xE0002000)
T43F0 000:442.628    -- CPU_ReadMem(4 bytes @ 0xE0001000)
T43F0 000:442.918    -- CPU_WriteMem(4 bytes @ 0xE0002008)
T43F0 000:442.930    -- CPU_WriteMem(4 bytes @ 0xE000200C)
T43F0 000:442.938    -- CPU_WriteMem(4 bytes @ 0xE0002010)
T43F0 000:442.946    -- CPU_WriteMem(4 bytes @ 0xE0002014)
T43F0 000:442.953    -- CPU_WriteMem(4 bytes @ 0xE0002018)
T43F0 000:442.961    -- CPU_WriteMem(4 bytes @ 0xE000201C)
T43F0 000:443.890    -- CPU_WriteMem(4 bytes @ 0xE0001004)
T43F0 000:446.657 - 4.381ms
T43F0 000:446.673 JLINK_IsHalted()
T43F0 000:448.729 - 2.064ms returns TRUE
T43F0 000:448.744 JLINK_ReadReg(R15 (PC))
T43F0 000:448.752 - 0.010ms returns 0x00008000
T43F0 000:448.759 JLINK_ClrBPEx(BPHandle = 0x00000001)
T43F0 000:448.765 - 0.008ms returns 0x00
T43F0 000:448.773 JLINK_ReadReg(R0)
T43F0 000:448.778 - 0.008ms returns 0x00000000
T43F0 000:449.160 JLINK_WriteReg(R0, 0x00000000)
T43F0 000:449.172 - 0.015ms returns 0x00
T43F0 000:449.180 JLINK_WriteReg(R1, 0x00B71B00)
T43F0 000:449.185 - 0.008ms returns 0x00
T43F0 000:449.192 JLINK_WriteReg(R2, 0x00000001)
T43F0 000:449.197 - 0.007ms returns 0x00
T43F0 000:449.204 JLINK_WriteReg(R3, 0x00000000)
T43F0 000:449.209 - 0.007ms returns 0x00
T43F0 000:449.216 JLINK_WriteReg(R4, 0x00000000)
T43F0 000:449.221 - 0.007ms returns 0x00
T43F0 000:449.228 JLINK_WriteReg(R5, 0x00000000)
T43F0 000:449.233 - 0.007ms returns 0x00
T43F0 000:449.240 JLINK_WriteReg(R6, 0x00000000)
T43F0 000:449.245 - 0.007ms returns 0x00
T43F0 000:449.252 JLINK_WriteReg(R7, 0x00000000)
T43F0 000:449.257 - 0.007ms returns 0x00
T43F0 000:449.264 JLINK_WriteReg(R8, 0x00000000)
T43F0 000:449.269 - 0.007ms returns 0x00
T43F0 000:449.276 JLINK_WriteReg(R9, 0x00008178)
T43F0 000:449.281 - 0.007ms returns 0x00
T43F0 000:449.288 JLINK_WriteReg(R10, 0x00000000)
T43F0 000:449.294 - 0.008ms returns 0x00
T43F0 000:449.300 JLINK_WriteReg(R11, 0x00000000)
T43F0 000:449.306 - 0.008ms returns 0x00
T43F0 000:449.312 JLINK_WriteReg(R12, 0x00000000)
T43F0 000:449.318 - 0.007ms returns 0x00
T43F0 000:449.324 JLINK_WriteReg(R13 (SP), 0x00010000)
T43F0 000:449.330 - 0.008ms returns 0x00
T43F0 000:449.337 JLINK_WriteReg(R14, 0x00008001)
T43F0 000:449.342 - 0.007ms returns 0x00
T43F0 000:449.349 JLINK_WriteReg(R15 (PC), 0x0000807C)
T43F0 000:449.354 - 0.007ms returns 0x00
T43F0 000:449.361 JLINK_WriteReg(XPSR, 0x01000000)
T43F0 000:449.366 - 0.008ms returns 0x00
T43F0 000:449.373 JLINK_WriteReg(MSP, 0x00010000)
T43F0 000:449.378 - 0.007ms returns 0x00
T43F0 000:449.385 JLINK_WriteReg(PSP, 0x00010000)
T43F0 000:449.390 - 0.007ms returns 0x00
T43F0 000:449.397 JLINK_WriteReg(CFBP, 0x00000000)
T43F0 000:449.402 - 0.007ms returns 0x00
T43F0 000:449.410   JLINK_SetBPEx(Addr = 0x00008000, Type = 0xFFFFFFF2)
T43F0 000:449.418 - 0.011ms returns 0x00000002
T43F0 000:449.425 JLINK_Go()
T43F0 000:449.433    -- CPU_WriteMem(4 bytes @ 0xE0002000)
T43F0 000:450.092    -- CPU_ReadMem(4 bytes @ 0xE0001000)
T43F0 000:452.212 - 2.801ms
T43F0 000:452.235 JLINK_IsHalted()
T43F0 000:452.527 - 0.298ms returns FALSE
T43F0 000:464.836 JLINK_IsHalted()
T43F0 000:467.229 - 2.405ms returns TRUE
T43F0 000:467.249 JLINK_ReadReg(R15 (PC))
T43F0 000:467.258 - 0.011ms returns 0x00008000
T43F0 000:467.265 JLINK_ClrBPEx(BPHandle = 0x00000002)
T43F0 000:467.271 - 0.048ms returns 0x00
T43F0 000:467.322 JLINK_ReadReg(R0)
T43F0 000:467.328 - 0.009ms returns 0x00000000
T43F0 000:519.722 JLINK_WriteReg(R0, 0x00000001)
T43F0 000:519.750 - 0.033ms returns 0x00
T43F0 000:519.758 JLINK_WriteReg(R1, 0x00B71B00)
T43F0 000:519.764 - 0.008ms returns 0x00
T43F0 000:519.770 JLINK_WriteReg(R2, 0x00000001)
T43F0 000:519.776 - 0.007ms returns 0x00
T43F0 000:519.782 JLINK_WriteReg(R3, 0x00000000)
T43F0 000:519.788 - 0.007ms returns 0x00
T43F0 000:519.794 JLINK_WriteReg(R4, 0x00000000)
T43F0 000:519.800 - 0.007ms returns 0x00
T43F0 000:519.806 JLINK_WriteReg(R5, 0x00000000)
T43F0 000:519.812 - 0.007ms returns 0x00
T43F0 000:519.818 JLINK_WriteReg(R6, 0x00000000)
T43F0 000:519.824 - 0.007ms returns 0x00
T43F0 000:519.830 JLINK_WriteReg(R7, 0x00000000)
T43F0 000:519.836 - 0.007ms returns 0x00
T43F0 000:519.842 JLINK_WriteReg(R8, 0x00000000)
T43F0 000:519.848 - 0.008ms returns 0x00
T43F0 000:519.854 JLINK_WriteReg(R9, 0x00008178)
T43F0 000:519.860 - 0.007ms returns 0x00
T43F0 000:519.866 JLINK_WriteReg(R10, 0x00000000)
T43F0 000:519.872 - 0.008ms returns 0x00
T43F0 000:519.879 JLINK_WriteReg(R11, 0x00000000)
T43F0 000:519.884 - 0.008ms returns 0x00
T43F0 000:519.891 JLINK_WriteReg(R12, 0x00000000)
T43F0 000:519.896 - 0.008ms returns 0x00
T43F0 000:519.903 JLINK_WriteReg(R13 (SP), 0x00010000)
T43F0 000:519.911 - 0.010ms returns 0x00
T43F0 000:519.918 JLINK_WriteReg(R14, 0x00008001)
T43F0 000:519.923 - 0.007ms returns 0x00
T43F0 000:519.930 JLINK_WriteReg(R15 (PC), 0x00008076)
T43F0 000:519.936 - 0.008ms returns 0x00
T43F0 000:519.942 JLINK_WriteReg(XPSR, 0x01000000)
T43F0 000:519.949 - 0.008ms returns 0x00
T43F0 000:519.955 JLINK_WriteReg(MSP, 0x00010000)
T43F0 000:519.961 - 0.007ms returns 0x00
T43F0 000:519.967 JLINK_WriteReg(PSP, 0x00010000)
T43F0 000:519.973 - 0.007ms returns 0x00
T43F0 000:519.979 JLINK_WriteReg(CFBP, 0x00000000)
T43F0 000:519.985 - 0.007ms returns 0x00
T43F0 000:519.993   JLINK_SetBPEx(Addr = 0x00008000, Type = 0xFFFFFFF2)
T43F0 000:520.004 - 0.014ms returns 0x00000003
T43F0 000:520.011 JLINK_Go()
T43F0 000:520.030    -- CPU_WriteMem(4 bytes @ 0xE0002000)
T43F0 000:520.472    -- CPU_ReadMem(4 bytes @ 0xE0001000)
T43F0 000:523.355 - 3.363ms
T43F0 000:523.384 JLINK_IsHalted()
T43F0 000:525.598 - 2.234ms returns TRUE
T43F0 000:525.628 JLINK_ReadReg(R15 (PC))
T43F0 000:525.637 - 0.011ms returns 0x00008000
T43F0 000:525.644 JLINK_ClrBPEx(BPHandle = 0x00000003)
T43F0 000:525.651 - 0.009ms returns 0x00
T43F0 000:525.658 JLINK_ReadReg(R0)
T43F0 000:525.664 - 0.008ms returns 0x00000000
T43F0 000:535.027 JLINK_WriteMem(0x00008000, 0x017C Bytes, ...)
T43F0 000:535.043   Data:  00 BE 0A E0 0D 78 2D 06 68 40 08 24 40 00 00 D3 ...
T43F0 000:535.065    -- CPU_WriteMem(380 bytes @ 0x00008000)
T43F0 000:536.829 - 1.822ms returns 0x17C
T43F0 000:536.900 JLINK_WriteReg(R0, 0x00000000)
T43F0 000:536.911 - 0.014ms returns 0x00
T43F0 000:536.919 JLINK_WriteReg(R1, 0x00B71B00)
T43F0 000:536.925 - 0.008ms returns 0x00
T43F0 000:536.932 JLINK_WriteReg(R2, 0x00000002)
T43F0 000:536.937 - 0.008ms returns 0x00
T43F0 000:536.944 JLINK_WriteReg(R3, 0x00000000)
T43F0 000:536.950 - 0.008ms returns 0x00
T43F0 000:536.957 JLINK_WriteReg(R4, 0x00000000)
T43F0 000:536.962 - 0.008ms returns 0x00
T43F0 000:536.969 JLINK_WriteReg(R5, 0x00000000)
T43F0 000:536.974 - 0.008ms returns 0x00
T43F0 000:536.981 JLINK_WriteReg(R6, 0x00000000)
T43F0 000:536.987 - 0.008ms returns 0x00
T43F0 000:536.994 JLINK_WriteReg(R7, 0x00000000)
T43F0 000:536.999 - 0.008ms returns 0x00
T43F0 000:537.006 JLINK_WriteReg(R8, 0x00000000)
T43F0 000:537.012 - 0.008ms returns 0x00
T43F0 000:537.019 JLINK_WriteReg(R9, 0x00008178)
T43F0 000:537.024 - 0.008ms returns 0x00
T43F0 000:537.031 JLINK_WriteReg(R10, 0x00000000)
T43F0 000:537.037 - 0.008ms returns 0x00
T43F0 000:537.044 JLINK_WriteReg(R11, 0x00000000)
T43F0 000:537.049 - 0.008ms returns 0x00
T43F0 000:537.056 JLINK_WriteReg(R12, 0x00000000)
T43F0 000:537.062 - 0.008ms returns 0x00
T43F0 000:537.068 JLINK_WriteReg(R13 (SP), 0x00010000)
T43F0 000:537.115 - 0.049ms returns 0x00
T43F0 000:537.122 JLINK_WriteReg(R14, 0x00008001)
T43F0 000:537.128 - 0.008ms returns 0x00
T43F0 000:537.135 JLINK_WriteReg(R15 (PC), 0x00008070)
T43F0 000:537.140 - 0.008ms returns 0x00
T43F0 000:537.147 JLINK_WriteReg(XPSR, 0x01000000)
T43F0 000:537.153 - 0.008ms returns 0x00
T43F0 000:537.160 JLINK_WriteReg(MSP, 0x00010000)
T43F0 000:537.165 - 0.008ms returns 0x00
T43F0 000:537.172 JLINK_WriteReg(PSP, 0x00010000)
T43F0 000:537.177 - 0.008ms returns 0x00
T43F0 000:537.184 JLINK_WriteReg(CFBP, 0x00000000)
T43F0 000:537.190 - 0.008ms returns 0x00
T43F0 000:537.197   JLINK_SetBPEx(Addr = 0x00008000, Type = 0xFFFFFFF2)
T43F0 000:537.206 - 0.012ms returns 0x00000004
T43F0 000:537.213 JLINK_Go()
T43F0 000:537.223    -- CPU_WriteMem(4 bytes @ 0xE0002000)
T43F0 000:537.593    -- CPU_ReadMem(4 bytes @ 0xE0001000)
T43F0 000:540.577 - 3.383ms
T43F0 000:540.608 JLINK_IsHalted()
T43F0 000:542.906 - 2.316ms returns TRUE
T43F0 000:542.935 JLINK_ReadReg(R15 (PC))
T43F0 000:542.943 - 0.011ms returns 0x00008000
T43F0 000:542.951 JLINK_ClrBPEx(BPHandle = 0x00000004)
T43F0 000:542.957 - 0.009ms returns 0x00
T43F0 000:542.965 JLINK_ReadReg(R0)
T43F0 000:542.970 - 0.008ms returns 0x00000000
T43F0 000:543.402 JLINK_WriteMem(0x0000817C, 0x0284 Bytes, ...)
T43F0 000:543.416   Data:  98 92 00 00 95 00 00 00 00 00 00 00 00 00 00 00 ...
T43F0 000:543.434    -- CPU_WriteMem(644 bytes @ 0x0000817C)
T43F0 000:546.348 - 2.962ms returns 0x284
T43F0 000:546.374 JLINK_WriteMem(0x00008400, 0x017C Bytes, ...)
T43F0 000:546.381   Data:  20 B1 00 23 D2 EB 03 0A 63 EB 0B 0B 01 98 59 46 ...
T43F0 000:546.400    -- CPU_WriteMem(380 bytes @ 0x00008400)
T43F0 000:548.369 - 2.002ms returns 0x17C
T43F0 000:548.388 JLINK_WriteReg(R0, 0x00000000)
T43F0 000:548.397 - 0.012ms returns 0x00
T43F0 000:548.404 JLINK_WriteReg(R1, 0x00000400)
T43F0 000:548.410 - 0.008ms returns 0x00
T43F0 000:548.417 JLINK_WriteReg(R2, 0x0000817C)
T43F0 000:548.423 - 0.008ms returns 0x00
T43F0 000:548.430 JLINK_WriteReg(R3, 0x00000000)
T43F0 000:548.435 - 0.008ms returns 0x00
T43F0 000:548.442 JLINK_WriteReg(R4, 0x00000000)
T43F0 000:548.448 - 0.008ms returns 0x00
T43F0 000:548.454 JLINK_WriteReg(R5, 0x00000000)
T43F0 000:548.460 - 0.008ms returns 0x00
T43F0 000:548.467 JLINK_WriteReg(R6, 0x00000000)
T43F0 000:548.472 - 0.008ms returns 0x00
T43F0 000:548.479 JLINK_WriteReg(R7, 0x00000000)
T43F0 000:548.485 - 0.008ms returns 0x00
T43F0 000:548.492 JLINK_WriteReg(R8, 0x00000000)
T43F0 000:548.497 - 0.008ms returns 0x00
T43F0 000:548.504 JLINK_WriteReg(R9, 0x00008178)
T43F0 000:548.510 - 0.008ms returns 0x00
T43F0 000:548.517 JLINK_WriteReg(R10, 0x00000000)
T43F0 000:548.522 - 0.008ms returns 0x00
T43F0 000:548.529 JLINK_WriteReg(R11, 0x00000000)
T43F0 000:548.535 - 0.008ms returns 0x00
T43F0 000:548.541 JLINK_WriteReg(R12, 0x00000000)
T43F0 000:548.547 - 0.008ms returns 0x00
T43F0 000:548.554 JLINK_WriteReg(R13 (SP), 0x00010000)
T43F0 000:548.560 - 0.008ms returns 0x00
T43F0 000:548.567 JLINK_WriteReg(R14, 0x00008001)
T43F0 000:548.573 - 0.008ms returns 0x00
T43F0 000:548.580 JLINK_WriteReg(R15 (PC), 0x0000809E)
T43F0 000:548.585 - 0.008ms returns 0x00
T43F0 000:548.592 JLINK_WriteReg(XPSR, 0x01000000)
T43F0 000:548.598 - 0.008ms returns 0x00
T43F0 000:548.605 JLINK_WriteReg(MSP, 0x00010000)
T43F0 000:548.610 - 0.008ms returns 0x00
T43F0 000:548.617 JLINK_WriteReg(PSP, 0x00010000)
T43F0 000:548.623 - 0.008ms returns 0x00
T43F0 000:548.630 JLINK_WriteReg(CFBP, 0x00000000)
T43F0 000:548.635 - 0.008ms returns 0x00
T43F0 000:548.643   JLINK_SetBPEx(Addr = 0x00008000, Type = 0xFFFFFFF2)
T43F0 000:548.652 - 0.011ms returns 0x00000005
T43F0 000:548.659 JLINK_Go()
T43F0 000:548.667    -- CPU_WriteMem(4 bytes @ 0xE0002000)
T43F0 000:549.014    -- CPU_ReadMem(4 bytes @ 0xE0001000)
T43F0 000:551.377 - 2.726ms
T43F0 000:551.393 JLINK_IsHalted()
T43F0 000:553.452 - 2.068ms returns TRUE
T43F0 000:553.469 JLINK_ReadReg(R15 (PC))
T43F0 000:553.477 - 0.047ms returns 0x00008000
T43F0 000:553.525 JLINK_ClrBPEx(BPHandle = 0x00000005)
T43F0 000:553.532 - 0.009ms returns 0x00
T43F0 000:553.539 JLINK_ReadReg(R0)
T43F0 000:553.545 - 0.008ms returns 0x00000000
T43F0 000:554.228 JLINK_WriteMem(0x0000817C, 0x0284 Bytes, ...)
T43F0 000:554.238   Data:  6E EB 07 0C 87 0E 92 0E 47 EA 81 17 42 EA 83 12 ...
T43F0 000:554.252    -- CPU_WriteMem(644 bytes @ 0x0000817C)
T43F0 000:557.242 - 3.022ms returns 0x284
T43F0 000:557.258 JLINK_WriteMem(0x00008400, 0x017C Bytes, ...)
T43F0 000:557.265   Data:  90 42 30 BD 01 F0 00 43 30 B4 21 F0 00 41 50 EA ...
T43F0 000:557.277    -- CPU_WriteMem(380 bytes @ 0x00008400)
T43F0 000:559.326 - 2.075ms returns 0x17C
T43F0 000:559.344 JLINK_WriteReg(R0, 0x00000400)
T43F0 000:559.353 - 0.011ms returns 0x00
T43F0 000:559.360 JLINK_WriteReg(R1, 0x00000400)
T43F0 000:559.366 - 0.008ms returns 0x00
T43F0 000:559.373 JLINK_WriteReg(R2, 0x0000817C)
T43F0 000:559.379 - 0.008ms returns 0x00
T43F0 000:559.386 JLINK_WriteReg(R3, 0x00000000)
T43F0 000:559.391 - 0.008ms returns 0x00
T43F0 000:559.398 JLINK_WriteReg(R4, 0x00000000)
T43F0 000:559.404 - 0.008ms returns 0x00
T43F0 000:559.411 JLINK_WriteReg(R5, 0x00000000)
T43F0 000:559.416 - 0.008ms returns 0x00
T43F0 000:559.423 JLINK_WriteReg(R6, 0x00000000)
T43F0 000:559.428 - 0.008ms returns 0x00
T43F0 000:559.435 JLINK_WriteReg(R7, 0x00000000)
T43F0 000:559.441 - 0.008ms returns 0x00
T43F0 000:559.448 JLINK_WriteReg(R8, 0x00000000)
T43F0 000:559.453 - 0.008ms returns 0x00
T43F0 000:559.460 JLINK_WriteReg(R9, 0x00008178)
T43F0 000:559.466 - 0.008ms returns 0x00
T43F0 000:559.477 JLINK_WriteReg(R10, 0x00000000)
T43F0 000:559.483 - 0.008ms returns 0x00
T43F0 000:559.490 JLINK_WriteReg(R11, 0x00000000)
T43F0 000:559.496 - 0.008ms returns 0x00
T43F0 000:559.505 JLINK_WriteReg(R12, 0x00000000)
T43F0 000:559.511 - 0.008ms returns 0x00
T43F0 000:559.518 JLINK_WriteReg(R13 (SP), 0x00010000)
T43F0 000:559.524 - 0.008ms returns 0x00
T43F0 000:559.533 JLINK_WriteReg(R14, 0x00008001)
T43F0 000:559.538 - 0.008ms returns 0x00
T43F0 000:559.545 JLINK_WriteReg(R15 (PC), 0x0000809E)
T43F0 000:559.551 - 0.008ms returns 0x00
T43F0 000:559.558 JLINK_WriteReg(XPSR, 0x01000000)
T43F0 000:559.564 - 0.008ms returns 0x00
T43F0 000:559.571 JLINK_WriteReg(MSP, 0x00010000)
T43F0 000:559.576 - 0.008ms returns 0x00
T43F0 000:559.584 JLINK_WriteReg(PSP, 0x00010000)
T43F0 000:559.590 - 0.008ms returns 0x00
T43F0 000:559.599 JLINK_WriteReg(CFBP, 0x00000000)
T43F0 000:559.605 - 0.008ms returns 0x00
T43F0 000:559.614   JLINK_SetBPEx(Addr = 0x00008000, Type = 0xFFFFFFF2)
T43F0 000:559.622 - 0.011ms returns 0x00000006
T43F0 000:559.631 JLINK_Go()
T43F0 000:559.639    -- CPU_WriteMem(4 bytes @ 0xE0002000)
T43F0 000:560.010    -- CPU_ReadMem(4 bytes @ 0xE0001000)
T43F0 000:562.235 - 2.611ms
T43F0 000:562.254 JLINK_IsHalted()
T43F0 000:564.058 - 1.812ms returns TRUE
T43F0 000:564.076 JLINK_ReadReg(R15 (PC))
T43F0 000:564.084 - 0.010ms returns 0x00008000
T43F0 000:564.091 JLINK_ClrBPEx(BPHandle = 0x00000006)
T43F0 000:564.097 - 0.008ms returns 0x00
T43F0 000:564.211 JLINK_ReadReg(R0)
T43F0 000:564.226 - 0.018ms returns 0x00000000
T43F0 000:564.821 JLINK_WriteMem(0x0000817C, 0x0284 Bytes, ...)
T43F0 000:564.830   Data:  A3 EB 0C 01 CB 1D 4F EA 00 61 4F EA 10 20 42 BF ...
T43F0 000:564.843    -- CPU_WriteMem(644 bytes @ 0x0000817C)
T43F0 000:567.480 - 2.667ms returns 0x284
T43F0 000:567.495 JLINK_WriteMem(0x00008400, 0x017C Bytes, ...)
T43F0 000:567.502   Data:  FF 32 13 46 01 E0 00 22 13 46 1B EB 07 00 46 EB ...
T43F0 000:567.514    -- CPU_WriteMem(380 bytes @ 0x00008400)
T43F0 000:569.405 - 1.929ms returns 0x17C
T43F0 000:569.440 JLINK_WriteReg(R0, 0x00000800)
T43F0 000:569.451 - 0.014ms returns 0x00
T43F0 000:569.459 JLINK_WriteReg(R1, 0x00000400)
T43F0 000:569.465 - 0.008ms returns 0x00
T43F0 000:569.472 JLINK_WriteReg(R2, 0x0000817C)
T43F0 000:569.478 - 0.009ms returns 0x00
T43F0 000:569.485 JLINK_WriteReg(R3, 0x00000000)
T43F0 000:569.491 - 0.008ms returns 0x00
T43F0 000:569.543 JLINK_WriteReg(R4, 0x00000000)
T43F0 000:569.552 - 0.012ms returns 0x00
T43F0 000:569.559 JLINK_WriteReg(R5, 0x00000000)
T43F0 000:569.565 - 0.007ms returns 0x00
T43F0 000:569.572 JLINK_WriteReg(R6, 0x00000000)
T43F0 000:569.577 - 0.008ms returns 0x00
T43F0 000:569.584 JLINK_WriteReg(R7, 0x00000000)
T43F0 000:569.589 - 0.007ms returns 0x00
T43F0 000:569.596 JLINK_WriteReg(R8, 0x00000000)
T43F0 000:569.601 - 0.008ms returns 0x00
T43F0 000:569.608 JLINK_WriteReg(R9, 0x00008178)
T43F0 000:569.613 - 0.007ms returns 0x00
T43F0 000:569.620 JLINK_WriteReg(R10, 0x00000000)
T43F0 000:569.626 - 0.008ms returns 0x00
T43F0 000:569.632 JLINK_WriteReg(R11, 0x00000000)
T43F0 000:569.638 - 0.008ms returns 0x00
T43F0 000:569.644 JLINK_WriteReg(R12, 0x00000000)
T43F0 000:569.650 - 0.008ms returns 0x00
T43F0 000:569.657 JLINK_WriteReg(R13 (SP), 0x00010000)
T43F0 000:569.663 - 0.008ms returns 0x00
T43F0 000:569.670 JLINK_WriteReg(R14, 0x00008001)
T43F0 000:569.675 - 0.007ms returns 0x00
T43F0 000:569.682 JLINK_WriteReg(R15 (PC), 0x0000809E)
T43F0 000:569.687 - 0.008ms returns 0x00
T43F0 000:569.694 JLINK_WriteReg(XPSR, 0x01000000)
T43F0 000:569.699 - 0.008ms returns 0x00
T43F0 000:569.706 JLINK_WriteReg(MSP, 0x00010000)
T43F0 000:569.711 - 0.008ms returns 0x00
T43F0 000:569.718 JLINK_WriteReg(PSP, 0x00010000)
T43F0 000:569.724 - 0.008ms returns 0x00
T43F0 000:569.730 JLINK_WriteReg(CFBP, 0x00000000)
T43F0 000:569.736 - 0.007ms returns 0x00
T43F0 000:569.743   JLINK_SetBPEx(Addr = 0x00008000, Type = 0xFFFFFFF2)
T43F0 000:569.752 - 0.012ms returns 0x00000007
T43F0 000:569.759 JLINK_Go()
T43F0 000:569.769    -- CPU_WriteMem(4 bytes @ 0xE0002000)
T43F0 000:570.184    -- CPU_ReadMem(4 bytes @ 0xE0001000)
T43F0 000:573.179 - 3.431ms
T43F0 000:573.198 JLINK_IsHalted()
T43F0 000:575.342 - 2.154ms returns TRUE
T43F0 000:575.361 JLINK_ReadReg(R15 (PC))
T43F0 000:575.368 - 0.011ms returns 0x00008000
T43F0 000:575.376 JLINK_ClrBPEx(BPHandle = 0x00000007)
T43F0 000:575.382 - 0.008ms returns 0x00
T43F0 000:575.390 JLINK_ReadReg(R0)
T43F0 000:575.395 - 0.008ms returns 0x00000000
T43F0 000:577.593 JLINK_WriteMem(0x0000817C, 0x0284 Bytes, ...)
T43F0 000:577.614   Data:  D8 F8 00 20 00 F0 CE F8 83 46 00 20 05 EB 80 02 ...
T43F0 000:577.633    -- CPU_WriteMem(644 bytes @ 0x0000817C)
T43F0 000:580.614 - 3.029ms returns 0x284
T43F0 000:580.630 JLINK_WriteMem(0x00008400, 0x017C Bytes, ...)
T43F0 000:580.636   Data:  50 46 FF F7 1B FC 04 D2 00 21 50 46 FF F7 5B F9 ...
T43F0 000:580.649    -- CPU_WriteMem(380 bytes @ 0x00008400)
T43F0 000:582.681 - 2.071ms returns 0x17C
T43F0 000:582.717 JLINK_WriteReg(R0, 0x00000C00)
T43F0 000:582.728 - 0.015ms returns 0x00
T43F0 000:582.736 JLINK_WriteReg(R1, 0x00000400)
T43F0 000:582.742 - 0.008ms returns 0x00
T43F0 000:582.749 JLINK_WriteReg(R2, 0x0000817C)
T43F0 000:582.755 - 0.008ms returns 0x00
T43F0 000:582.762 JLINK_WriteReg(R3, 0x00000000)
T43F0 000:582.767 - 0.008ms returns 0x00
T43F0 000:582.774 JLINK_WriteReg(R4, 0x00000000)
T43F0 000:582.780 - 0.008ms returns 0x00
T43F0 000:582.787 JLINK_WriteReg(R5, 0x00000000)
T43F0 000:582.792 - 0.008ms returns 0x00
T43F0 000:582.799 JLINK_WriteReg(R6, 0x00000000)
T43F0 000:582.805 - 0.008ms returns 0x00
T43F0 000:582.812 JLINK_WriteReg(R7, 0x00000000)
T43F0 000:582.817 - 0.008ms returns 0x00
T43F0 000:582.824 JLINK_WriteReg(R8, 0x00000000)
T43F0 000:582.830 - 0.008ms returns 0x00
T43F0 000:582.837 JLINK_WriteReg(R9, 0x00008178)
T43F0 000:582.842 - 0.008ms returns 0x00
T43F0 000:582.849 JLINK_WriteReg(R10, 0x00000000)
T43F0 000:582.855 - 0.008ms returns 0x00
T43F0 000:582.862 JLINK_WriteReg(R11, 0x00000000)
T43F0 000:582.868 - 0.009ms returns 0x00
T43F0 000:582.875 JLINK_WriteReg(R12, 0x00000000)
T43F0 000:582.882 - 0.009ms returns 0x00
T43F0 000:582.889 JLINK_WriteReg(R13 (SP), 0x00010000)
T43F0 000:582.895 - 0.008ms returns 0x00
T43F0 000:582.902 JLINK_WriteReg(R14, 0x00008001)
T43F0 000:582.907 - 0.007ms returns 0x00
T43F0 000:582.914 JLINK_WriteReg(R15 (PC), 0x0000809E)
T43F0 000:582.919 - 0.011ms returns 0x00
T43F0 000:582.932 JLINK_WriteReg(XPSR, 0x01000000)
T43F0 000:582.938 - 0.008ms returns 0x00
T43F0 000:582.944 JLINK_WriteReg(MSP, 0x00010000)
T43F0 000:582.950 - 0.007ms returns 0x00
T43F0 000:582.956 JLINK_WriteReg(PSP, 0x00010000)
T43F0 000:582.962 - 0.008ms returns 0x00
T43F0 000:582.969 JLINK_WriteReg(CFBP, 0x00000000)
T43F0 000:582.974 - 0.007ms returns 0x00
T43F0 000:582.981   JLINK_SetBPEx(Addr = 0x00008000, Type = 0xFFFFFFF2)
T43F0 000:582.990 - 0.012ms returns 0x00000008
T43F0 000:582.998 JLINK_Go()
T43F0 000:583.007    -- CPU_WriteMem(4 bytes @ 0xE0002000)
T43F0 000:583.836    -- CPU_ReadMem(4 bytes @ 0xE0001000)
T43F0 000:586.580 - 3.600ms
T43F0 000:586.608 JLINK_IsHalted()
T43F0 000:588.766 - 2.167ms returns TRUE
T43F0 000:588.784 JLINK_ReadReg(R15 (PC))
T43F0 000:588.792 - 0.011ms returns 0x00008000
T43F0 000:588.800 JLINK_ClrBPEx(BPHandle = 0x00000008)
T43F0 000:588.807 - 0.009ms returns 0x00
T43F0 000:588.814 JLINK_ReadReg(R0)
T43F0 000:588.820 - 0.008ms returns 0x00000000
T43F0 000:589.516 JLINK_WriteMem(0x0000817C, 0x0284 Bytes, ...)
T43F0 000:589.526   Data:  0D 0A 00 00 69 20 3D 20 25 64 0D 0A 00 00 00 00 ...
T43F0 000:589.541    -- CPU_WriteMem(644 bytes @ 0x0000817C)
T43F0 000:592.197 - 2.689ms returns 0x284
T43F0 000:592.213 JLINK_WriteMem(0x00008400, 0x017C Bytes, ...)
T43F0 000:592.219   Data:  FE F7 0C FF 83 46 64 1C B4 42 D2 D3 34 46 2A E0 ...
T43F0 000:592.232    -- CPU_WriteMem(380 bytes @ 0x00008400)
T43F0 000:594.104 - 1.899ms returns 0x17C
T43F0 000:594.122 JLINK_WriteReg(R0, 0x00001000)
T43F0 000:594.131 - 0.011ms returns 0x00
T43F0 000:594.138 JLINK_WriteReg(R1, 0x00000400)
T43F0 000:594.144 - 0.008ms returns 0x00
T43F0 000:594.151 JLINK_WriteReg(R2, 0x0000817C)
T43F0 000:594.157 - 0.008ms returns 0x00
T43F0 000:594.164 JLINK_WriteReg(R3, 0x00000000)
T43F0 000:594.169 - 0.008ms returns 0x00
T43F0 000:594.176 JLINK_WriteReg(R4, 0x00000000)
T43F0 000:594.182 - 0.008ms returns 0x00
T43F0 000:594.189 JLINK_WriteReg(R5, 0x00000000)
T43F0 000:594.194 - 0.008ms returns 0x00
T43F0 000:594.201 JLINK_WriteReg(R6, 0x00000000)
T43F0 000:594.207 - 0.008ms returns 0x00
T43F0 000:594.214 JLINK_WriteReg(R7, 0x00000000)
T43F0 000:594.219 - 0.008ms returns 0x00
T43F0 000:594.226 JLINK_WriteReg(R8, 0x00000000)
T43F0 000:594.232 - 0.008ms returns 0x00
T43F0 000:594.238 JLINK_WriteReg(R9, 0x00008178)
T43F0 000:594.244 - 0.008ms returns 0x00
T43F0 000:594.251 JLINK_WriteReg(R10, 0x00000000)
T43F0 000:594.256 - 0.008ms returns 0x00
T43F0 000:594.263 JLINK_WriteReg(R11, 0x00000000)
T43F0 000:594.269 - 0.008ms returns 0x00
T43F0 000:594.276 JLINK_WriteReg(R12, 0x00000000)
T43F0 000:594.281 - 0.008ms returns 0x00
T43F0 000:594.288 JLINK_WriteReg(R13 (SP), 0x00010000)
T43F0 000:594.294 - 0.008ms returns 0x00
T43F0 000:594.301 JLINK_WriteReg(R14, 0x00008001)
T43F0 000:594.307 - 0.008ms returns 0x00
T43F0 000:594.314 JLINK_WriteReg(R15 (PC), 0x0000809E)
T43F0 000:594.319 - 0.008ms returns 0x00
T43F0 000:594.326 JLINK_WriteReg(XPSR, 0x01000000)
T43F0 000:594.332 - 0.008ms returns 0x00
T43F0 000:594.338 JLINK_WriteReg(MSP, 0x00010000)
T43F0 000:594.344 - 0.008ms returns 0x00
T43F0 000:594.351 JLINK_WriteReg(PSP, 0x00010000)
T43F0 000:594.356 - 0.008ms returns 0x00
T43F0 000:594.363 JLINK_WriteReg(CFBP, 0x00000000)
T43F0 000:594.369 - 0.008ms returns 0x00
T43F0 000:594.376   JLINK_SetBPEx(Addr = 0x00008000, Type = 0xFFFFFFF2)
T43F0 000:594.385 - 0.011ms returns 0x00000009
T43F0 000:594.392 JLINK_Go()
T43F0 000:594.399    -- CPU_WriteMem(4 bytes @ 0xE0002000)
T43F0 000:594.749    -- CPU_ReadMem(4 bytes @ 0xE0001000)
T43F0 000:597.654 - 3.270ms
T43F0 000:597.669 JLINK_IsHalted()
T43F0 000:599.789 - 2.127ms returns TRUE
T43F0 000:599.803 JLINK_ReadReg(R15 (PC))
T43F0 000:599.811 - 0.010ms returns 0x00008000
T43F0 000:599.818 JLINK_ClrBPEx(BPHandle = 0x00000009)
T43F0 000:599.825 - 0.008ms returns 0x00
T43F0 000:599.832 JLINK_ReadReg(R0)
T43F0 000:599.837 - 0.008ms returns 0x00000000
T43F0 000:600.484 JLINK_WriteMem(0x0000817C, 0x0284 Bytes, ...)
T43F0 000:600.496   Data:  01 F0 C0 F8 12 E0 11 48 00 78 20 B1 01 28 03 D0 ...
T43F0 000:600.511    -- CPU_WriteMem(644 bytes @ 0x0000817C)
T43F0 000:603.150 - 2.676ms returns 0x284
T43F0 000:603.167 JLINK_WriteMem(0x00008400, 0x017C Bytes, ...)
T43F0 000:603.174   Data:  35 00 03 99 FE F7 0A FD 44 F8 35 00 04 EB C5 02 ...
T43F0 000:603.188    -- CPU_WriteMem(380 bytes @ 0x00008400)
T43F0 000:605.209 - 2.049ms returns 0x17C
T43F0 000:605.227 JLINK_WriteReg(R0, 0x00001400)
T43F0 000:605.236 - 0.011ms returns 0x00
T43F0 000:605.243 JLINK_WriteReg(R1, 0x00000400)
T43F0 000:605.249 - 0.008ms returns 0x00
T43F0 000:605.256 JLINK_WriteReg(R2, 0x0000817C)
T43F0 000:605.262 - 0.008ms returns 0x00
T43F0 000:605.269 JLINK_WriteReg(R3, 0x00000000)
T43F0 000:605.274 - 0.008ms returns 0x00
T43F0 000:605.281 JLINK_WriteReg(R4, 0x00000000)
T43F0 000:605.287 - 0.008ms returns 0x00
T43F0 000:605.294 JLINK_WriteReg(R5, 0x00000000)
T43F0 000:605.299 - 0.008ms returns 0x00
T43F0 000:605.306 JLINK_WriteReg(R6, 0x00000000)
T43F0 000:605.311 - 0.008ms returns 0x00
T43F0 000:605.318 JLINK_WriteReg(R7, 0x00000000)
T43F0 000:605.324 - 0.008ms returns 0x00
T43F0 000:605.331 JLINK_WriteReg(R8, 0x00000000)
T43F0 000:605.336 - 0.008ms returns 0x00
T43F0 000:605.343 JLINK_WriteReg(R9, 0x00008178)
T43F0 000:605.349 - 0.008ms returns 0x00
T43F0 000:605.355 JLINK_WriteReg(R10, 0x00000000)
T43F0 000:605.361 - 0.008ms returns 0x00
T43F0 000:605.368 JLINK_WriteReg(R11, 0x00000000)
T43F0 000:605.373 - 0.008ms returns 0x00
T43F0 000:605.380 JLINK_WriteReg(R12, 0x00000000)
T43F0 000:605.386 - 0.008ms returns 0x00
T43F0 000:605.393 JLINK_WriteReg(R13 (SP), 0x00010000)
T43F0 000:605.399 - 0.008ms returns 0x00
T43F0 000:605.406 JLINK_WriteReg(R14, 0x00008001)
T43F0 000:605.411 - 0.008ms returns 0x00
T43F0 000:605.418 JLINK_WriteReg(R15 (PC), 0x0000809E)
T43F0 000:605.424 - 0.008ms returns 0x00
T43F0 000:605.431 JLINK_WriteReg(XPSR, 0x01000000)
T43F0 000:605.436 - 0.008ms returns 0x00
T43F0 000:605.443 JLINK_WriteReg(MSP, 0x00010000)
T43F0 000:605.448 - 0.008ms returns 0x00
T43F0 000:605.455 JLINK_WriteReg(PSP, 0x00010000)
T43F0 000:605.461 - 0.008ms returns 0x00
T43F0 000:605.468 JLINK_WriteReg(CFBP, 0x00000000)
T43F0 000:605.473 - 0.008ms returns 0x00
T43F0 000:605.481   JLINK_SetBPEx(Addr = 0x00008000, Type = 0xFFFFFFF2)
T43F0 000:605.489 - 0.011ms returns 0x0000000A
T43F0 000:605.496 JLINK_Go()
T43F0 000:605.504    -- CPU_WriteMem(4 bytes @ 0xE0002000)
T43F0 000:605.868    -- CPU_ReadMem(4 bytes @ 0xE0001000)
T43F0 000:608.166 - 2.681ms
T43F0 000:608.186 JLINK_IsHalted()
T43F0 000:610.111 - 1.941ms returns TRUE
T43F0 000:610.137 JLINK_ReadReg(R15 (PC))
T43F0 000:610.146 - 0.012ms returns 0x00008000
T43F0 000:610.154 JLINK_ClrBPEx(BPHandle = 0x0000000A)
T43F0 000:610.160 - 0.009ms returns 0x00
T43F0 000:610.168 JLINK_ReadReg(R0)
T43F0 000:610.173 - 0.008ms returns 0x00000000
T43F0 000:610.894 JLINK_WriteMem(0x0000817C, 0x0284 Bytes, ...)
T43F0 000:610.910   Data:  C8 60 70 47 08 80 00 00 66 80 00 00 67 80 00 00 ...
T43F0 000:610.927    -- CPU_WriteMem(644 bytes @ 0x0000817C)
T43F0 000:613.558 - 2.679ms returns 0x284
T43F0 000:613.584 JLINK_WriteMem(0x00008400, 0x017C Bytes, ...)
T43F0 000:613.591   Data:  CF 48 00 68 50 F8 24 00 A0 EB 06 09 CC 48 00 68 ...
T43F0 000:613.607    -- CPU_WriteMem(380 bytes @ 0x00008400)
T43F0 000:615.388 - 1.817ms returns 0x17C
T43F0 000:615.419 JLINK_WriteReg(R0, 0x00001800)
T43F0 000:615.429 - 0.013ms returns 0x00
T43F0 000:615.436 JLINK_WriteReg(R1, 0x00000400)
T43F0 000:615.442 - 0.008ms returns 0x00
T43F0 000:615.449 JLINK_WriteReg(R2, 0x0000817C)
T43F0 000:615.455 - 0.008ms returns 0x00
T43F0 000:615.462 JLINK_WriteReg(R3, 0x00000000)
T43F0 000:615.468 - 0.008ms returns 0x00
T43F0 000:615.477 JLINK_WriteReg(R4, 0x00000000)
T43F0 000:615.483 - 0.008ms returns 0x00
T43F0 000:615.491 JLINK_WriteReg(R5, 0x00000000)
T43F0 000:615.497 - 0.008ms returns 0x00
T43F0 000:615.506 JLINK_WriteReg(R6, 0x00000000)
T43F0 000:615.515 - 0.012ms returns 0x00
T43F0 000:615.526 JLINK_WriteReg(R7, 0x00000000)
T43F0 000:615.531 - 0.008ms returns 0x00
T43F0 000:615.539 JLINK_WriteReg(R8, 0x00000000)
T43F0 000:615.545 - 0.008ms returns 0x00
T43F0 000:615.554 JLINK_WriteReg(R9, 0x00008178)
T43F0 000:615.560 - 0.008ms returns 0x00
T43F0 000:615.567 JLINK_WriteReg(R10, 0x00000000)
T43F0 000:615.572 - 0.008ms returns 0x00
T43F0 000:615.581 JLINK_WriteReg(R11, 0x00000000)
T43F0 000:615.587 - 0.008ms returns 0x00
T43F0 000:615.594 JLINK_WriteReg(R12, 0x00000000)
T43F0 000:615.600 - 0.008ms returns 0x00
T43F0 000:615.609 JLINK_WriteReg(R13 (SP), 0x00010000)
T43F0 000:615.616 - 0.009ms returns 0x00
T43F0 000:615.623 JLINK_WriteReg(R14, 0x00008001)
T43F0 000:615.628 - 0.008ms returns 0x00
T43F0 000:615.637 JLINK_WriteReg(R15 (PC), 0x0000809E)
T43F0 000:615.643 - 0.008ms returns 0x00
T43F0 000:615.650 JLINK_WriteReg(XPSR, 0x01000000)
T43F0 000:615.656 - 0.008ms returns 0x00
T43F0 000:615.663 JLINK_WriteReg(MSP, 0x00010000)
T43F0 000:615.668 - 0.008ms returns 0x00
T43F0 000:615.675 JLINK_WriteReg(PSP, 0x00010000)
T43F0 000:615.681 - 0.008ms returns 0x00
T43F0 000:615.688 JLINK_WriteReg(CFBP, 0x00000000)
T43F0 000:615.693 - 0.008ms returns 0x00
T43F0 000:615.703   JLINK_SetBPEx(Addr = 0x00008000, Type = 0xFFFFFFF2)
T43F0 000:615.712 - 0.012ms returns 0x0000000B
T43F0 000:615.719 JLINK_Go()
T43F0 000:615.729    -- CPU_WriteMem(4 bytes @ 0xE0002000)
T43F0 000:616.041    -- CPU_ReadMem(4 bytes @ 0xE0001000)
T43F0 000:618.397 - 2.690ms
T43F0 000:618.422 JLINK_IsHalted()
T43F0 000:620.402 - 1.989ms returns TRUE
T43F0 000:620.423 JLINK_ReadReg(R15 (PC))
T43F0 000:620.431 - 0.011ms returns 0x00008000
T43F0 000:620.439 JLINK_ClrBPEx(BPHandle = 0x0000000B)
T43F0 000:620.445 - 0.009ms returns 0x00
T43F0 000:620.452 JLINK_ReadReg(R0)
T43F0 000:620.458 - 0.008ms returns 0x00000000
T43F0 000:621.137 JLINK_WriteMem(0x0000817C, 0x0284 Bytes, ...)
T43F0 000:621.147   Data:  FE F7 A6 FA 91 49 01 EB C4 01 48 60 61 1C 96 A0 ...
T43F0 000:621.161    -- CPU_WriteMem(644 bytes @ 0x0000817C)
T43F0 000:623.857 - 2.740ms returns 0x284
T43F0 000:623.889 JLINK_WriteMem(0x00008400, 0x017C Bytes, ...)
T43F0 000:623.896   Data:  09 2D 20 53 74 61 74 65 20 3A 20 BD E1 B9 FB CA ...
T43F0 000:623.914    -- CPU_WriteMem(380 bytes @ 0x00008400)
T43F0 000:625.702 - 1.827ms returns 0x17C
T43F0 000:625.729 JLINK_WriteReg(R0, 0x00001C00)
T43F0 000:625.739 - 0.013ms returns 0x00
T43F0 000:625.747 JLINK_WriteReg(R1, 0x00000400)
T43F0 000:625.753 - 0.008ms returns 0x00
T43F0 000:625.760 JLINK_WriteReg(R2, 0x0000817C)
T43F0 000:625.765 - 0.008ms returns 0x00
T43F0 000:625.772 JLINK_WriteReg(R3, 0x00000000)
T43F0 000:625.778 - 0.008ms returns 0x00
T43F0 000:625.785 JLINK_WriteReg(R4, 0x00000000)
T43F0 000:625.790 - 0.008ms returns 0x00
T43F0 000:625.797 JLINK_WriteReg(R5, 0x00000000)
T43F0 000:625.803 - 0.008ms returns 0x00
T43F0 000:625.810 JLINK_WriteReg(R6, 0x00000000)
T43F0 000:625.815 - 0.008ms returns 0x00
T43F0 000:625.822 JLINK_WriteReg(R7, 0x00000000)
T43F0 000:625.828 - 0.008ms returns 0x00
T43F0 000:625.835 JLINK_WriteReg(R8, 0x00000000)
T43F0 000:625.840 - 0.008ms returns 0x00
T43F0 000:625.847 JLINK_WriteReg(R9, 0x00008178)
T43F0 000:625.853 - 0.008ms returns 0x00
T43F0 000:625.860 JLINK_WriteReg(R10, 0x00000000)
T43F0 000:625.865 - 0.008ms returns 0x00
T43F0 000:625.872 JLINK_WriteReg(R11, 0x00000000)
T43F0 000:625.878 - 0.008ms returns 0x00
T43F0 000:625.885 JLINK_WriteReg(R12, 0x00000000)
T43F0 000:625.891 - 0.008ms returns 0x00
T43F0 000:625.898 JLINK_WriteReg(R13 (SP), 0x00010000)
T43F0 000:625.904 - 0.008ms returns 0x00
T43F0 000:625.911 JLINK_WriteReg(R14, 0x00008001)
T43F0 000:625.916 - 0.008ms returns 0x00
T43F0 000:625.923 JLINK_WriteReg(R15 (PC), 0x0000809E)
T43F0 000:625.929 - 0.008ms returns 0x00
T43F0 000:625.936 JLINK_WriteReg(XPSR, 0x01000000)
T43F0 000:625.941 - 0.008ms returns 0x00
T43F0 000:625.948 JLINK_WriteReg(MSP, 0x00010000)
T43F0 000:625.953 - 0.008ms returns 0x00
T43F0 000:625.960 JLINK_WriteReg(PSP, 0x00010000)
T43F0 000:625.970 - 0.012ms returns 0x00
T43F0 000:625.977 JLINK_WriteReg(CFBP, 0x00000000)
T43F0 000:625.983 - 0.008ms returns 0x00
T43F0 000:625.990   JLINK_SetBPEx(Addr = 0x00008000, Type = 0xFFFFFFF2)
T43F0 000:625.999 - 0.012ms returns 0x0000000C
T43F0 000:626.006 JLINK_Go()
T43F0 000:626.015    -- CPU_WriteMem(4 bytes @ 0xE0002000)
T43F0 000:626.750    -- CPU_ReadMem(4 bytes @ 0xE0001000)
T43F0 000:629.755 - 3.756ms
T43F0 000:629.770 JLINK_IsHalted()
T43F0 000:631.724 - 1.962ms returns TRUE
T43F0 000:631.739 JLINK_ReadReg(R15 (PC))
T43F0 000:631.747 - 0.010ms returns 0x00008000
T43F0 000:631.754 JLINK_ClrBPEx(BPHandle = 0x0000000C)
T43F0 000:631.760 - 0.008ms returns 0x00
T43F0 000:631.768 JLINK_ReadReg(R0)
T43F0 000:631.773 - 0.008ms returns 0x00000000
T43F0 000:632.398 JLINK_WriteMem(0x0000817C, 0x0284 Bytes, ...)
T43F0 000:632.408   Data:  40 68 A0 42 ED D8 01 F0 9B FE D2 48 40 68 99 FB ...
T43F0 000:632.421    -- CPU_WriteMem(644 bytes @ 0x0000817C)
T43F0 000:635.145 - 2.754ms returns 0x284
T43F0 000:635.161 JLINK_WriteMem(0x00008400, 0x017C Bytes, ...)
T43F0 000:635.167   Data:  6D 1C 0E 2D D9 D3 70 1E A0 42 03 D1 60 A0 00 F0 ...
T43F0 000:635.180    -- CPU_WriteMem(380 bytes @ 0x00008400)
T43F0 000:637.234 - 2.080ms returns 0x17C
T43F0 000:637.250 JLINK_WriteReg(R0, 0x00002000)
T43F0 000:637.258 - 0.010ms returns 0x00
T43F0 000:637.266 JLINK_WriteReg(R1, 0x00000400)
T43F0 000:637.271 - 0.008ms returns 0x00
T43F0 000:637.278 JLINK_WriteReg(R2, 0x0000817C)
T43F0 000:637.284 - 0.008ms returns 0x00
T43F0 000:637.291 JLINK_WriteReg(R3, 0x00000000)
T43F0 000:637.296 - 0.008ms returns 0x00
T43F0 000:637.303 JLINK_WriteReg(R4, 0x00000000)
T43F0 000:637.309 - 0.008ms returns 0x00
T43F0 000:637.316 JLINK_WriteReg(R5, 0x00000000)
T43F0 000:637.321 - 0.008ms returns 0x00
T43F0 000:637.328 JLINK_WriteReg(R6, 0x00000000)
T43F0 000:637.334 - 0.008ms returns 0x00
T43F0 000:637.341 JLINK_WriteReg(R7, 0x00000000)
T43F0 000:637.346 - 0.008ms returns 0x00
T43F0 000:637.353 JLINK_WriteReg(R8, 0x00000000)
T43F0 000:637.359 - 0.008ms returns 0x00
T43F0 000:637.366 JLINK_WriteReg(R9, 0x00008178)
T43F0 000:637.371 - 0.008ms returns 0x00
T43F0 000:637.378 JLINK_WriteReg(R10, 0x00000000)
T43F0 000:637.384 - 0.008ms returns 0x00
T43F0 000:637.391 JLINK_WriteReg(R11, 0x00000000)
T43F0 000:637.397 - 0.008ms returns 0x00
T43F0 000:637.403 JLINK_WriteReg(R12, 0x00000000)
T43F0 000:637.409 - 0.008ms returns 0x00
T43F0 000:637.416 JLINK_WriteReg(R13 (SP), 0x00010000)
T43F0 000:637.422 - 0.008ms returns 0x00
T43F0 000:637.429 JLINK_WriteReg(R14, 0x00008001)
T43F0 000:637.434 - 0.008ms returns 0x00
T43F0 000:637.441 JLINK_WriteReg(R15 (PC), 0x0000809E)
T43F0 000:637.447 - 0.008ms returns 0x00
T43F0 000:637.454 JLINK_WriteReg(XPSR, 0x01000000)
T43F0 000:637.459 - 0.008ms returns 0x00
T43F0 000:637.466 JLINK_WriteReg(MSP, 0x00010000)
T43F0 000:637.472 - 0.008ms returns 0x00
T43F0 000:637.478 JLINK_WriteReg(PSP, 0x00010000)
T43F0 000:637.484 - 0.008ms returns 0x00
T43F0 000:637.491 JLINK_WriteReg(CFBP, 0x00000000)
T43F0 000:637.496 - 0.008ms returns 0x00
T43F0 000:637.504   JLINK_SetBPEx(Addr = 0x00008000, Type = 0xFFFFFFF2)
T43F0 000:637.512 - 0.011ms returns 0x0000000D
T43F0 000:637.519 JLINK_Go()
T43F0 000:637.527    -- CPU_WriteMem(4 bytes @ 0xE0002000)
T43F0 000:637.865    -- CPU_ReadMem(4 bytes @ 0xE0001000)
T43F0 000:640.145 - 2.635ms
T43F0 000:640.162 JLINK_IsHalted()
T43F0 000:642.095 - 1.970ms returns TRUE
T43F0 000:642.167 JLINK_ReadReg(R15 (PC))
T43F0 000:642.200 - 0.036ms returns 0x00008000
T43F0 000:642.208 JLINK_ClrBPEx(BPHandle = 0x0000000D)
T43F0 000:642.214 - 0.008ms returns 0x00
T43F0 000:642.221 JLINK_ReadReg(R0)
T43F0 000:642.226 - 0.008ms returns 0x00000000
T43F0 000:642.938 JLINK_WriteMem(0x0000817C, 0x0284 Bytes, ...)
T43F0 000:642.948   Data:  7B 20 00 00 25 66 20 20 00 00 00 00 25 66 2C 20 ...
T43F0 000:642.961    -- CPU_WriteMem(644 bytes @ 0x0000817C)
T43F0 000:645.565 - 2.635ms returns 0x284
T43F0 000:645.580 JLINK_WriteMem(0x00008400, 0x017C Bytes, ...)
T43F0 000:645.591   Data:  00 41 83 46 88 46 A8 4A A8 4B FD F7 76 FE 00 22 ...
T43F0 000:645.604    -- CPU_WriteMem(380 bytes @ 0x00008400)
T43F0 000:647.352 - 1.779ms returns 0x17C
T43F0 000:647.374 JLINK_WriteReg(R0, 0x00002400)
T43F0 000:647.382 - 0.011ms returns 0x00
T43F0 000:647.390 JLINK_WriteReg(R1, 0x00000400)
T43F0 000:647.396 - 0.008ms returns 0x00
T43F0 000:647.403 JLINK_WriteReg(R2, 0x0000817C)
T43F0 000:647.408 - 0.008ms returns 0x00
T43F0 000:647.415 JLINK_WriteReg(R3, 0x00000000)
T43F0 000:647.421 - 0.008ms returns 0x00
T43F0 000:647.429 JLINK_WriteReg(R4, 0x00000000)
T43F0 000:647.435 - 0.008ms returns 0x00
T43F0 000:647.444 JLINK_WriteReg(R5, 0x00000000)
T43F0 000:647.450 - 0.008ms returns 0x00
T43F0 000:647.458 JLINK_WriteReg(R6, 0x00000000)
T43F0 000:647.464 - 0.008ms returns 0x00
T43F0 000:647.472 JLINK_WriteReg(R7, 0x00000000)
T43F0 000:647.478 - 0.008ms returns 0x00
T43F0 000:647.486 JLINK_WriteReg(R8, 0x00000000)
T43F0 000:647.492 - 0.008ms returns 0x00
T43F0 000:647.500 JLINK_WriteReg(R9, 0x00008178)
T43F0 000:647.506 - 0.008ms returns 0x00
T43F0 000:647.515 JLINK_WriteReg(R10, 0x00000000)
T43F0 000:647.521 - 0.008ms returns 0x00
T43F0 000:647.530 JLINK_WriteReg(R11, 0x00000000)
T43F0 000:647.536 - 0.008ms returns 0x00
T43F0 000:647.543 JLINK_WriteReg(R12, 0x00000000)
T43F0 000:647.548 - 0.008ms returns 0x00
T43F0 000:647.555 JLINK_WriteReg(R13 (SP), 0x00010000)
T43F0 000:647.561 - 0.008ms returns 0x00
T43F0 000:647.568 JLINK_WriteReg(R14, 0x00008001)
T43F0 000:647.574 - 0.008ms returns 0x00
T43F0 000:647.583 JLINK_WriteReg(R15 (PC), 0x0000809E)
T43F0 000:647.588 - 0.008ms returns 0x00
T43F0 000:647.595 JLINK_WriteReg(XPSR, 0x01000000)
T43F0 000:647.601 - 0.008ms returns 0x00
